T0D18 205:100 SEGGER J-Link V6.40 Log File (0000ms, 30722ms total)
T0D18 205:100 DLL Compiled: Oct 26 2018 15:06:02 (0000ms, 30722ms total)
T0D18 205:100 Logging started @ 2019-01-21 17:59 (0000ms, 30722ms total)
T0D18 205:101 JLINK_SetWarnOutHandler(...) (0000ms, 30722ms total)
T0D18 205:101 JLINK_OpenEx(...)
Firmware: J-Link ARM V8 compiled Nov 28 2014 13:44:46
Hardware: V8.00
S/N: 1631096674
Feature(s): RDI,FlashDL,FlashBP,JFlash,GDB
TELNET listener socket opened on port 19021Device "STM32F030C6" selected.WEBSRV 
Starting webserver (0024ms, 30746ms total)
T0D18 205:101 WEBSRV Webserver running on local port 19080 (0024ms, 30746ms total)
T0D18 205:101   returns O.K. (0024ms, 30746ms total)
T0D18 205:125 JLINK_GetEmuCaps()  returns 0xB9FF7BBF (0001ms, 30747ms total)
T0D18 205:126 JLINK_TIF_GetAvailable(...) (0001ms, 30748ms total)
T0D18 205:127 JLINK_SetErrorOutHandler(...) (0000ms, 30748ms total)
T0D18 205:127 JLINK_ExecCommand("ProjectFile = "D:\projects\workspace\fs9slave\MDK-ARM\JLinkSettings.ini"", ...). Device "STM32F030C6" selected.  returns 0x00 (0004ms, 30752ms total)
T0D18 205:131 JLINK_ExecCommand("Device = STM32F030C6Tx", ...). Device "STM32F030C6" selected.  returns 0x00 (0002ms, 30754ms total)
T0D18 205:133 JLINK_ExecCommand("DisableConnectionTimeout", ...).   returns 0x01 (0000ms, 30754ms total)
T0D18 205:133 JLINK_GetHardwareVersion()  returns 0x13880 (0000ms, 30754ms total)
T0D18 205:133 JLINK_GetDLLVersion()  returns 64000 (0000ms, 30754ms total)
T0D18 205:133 JLINK_GetFirmwareString(...) (0000ms, 30754ms total)
T0D18 205:133 JLINK_GetDLLVersion()  returns 64000 (0000ms, 30754ms total)
T0D18 205:133 JLINK_GetCompileDateTime() (0000ms, 30754ms total)
T0D18 205:134 JLINK_GetFirmwareString(...) (0000ms, 30755ms total)
T0D18 205:134 JLINK_GetHardwareVersion()  returns 0x13880 (0000ms, 30755ms total)
T0D18 205:134 JLINK_TIF_Select(JLINKARM_TIF_SWD)  returns 0x00 (0001ms, 30756ms total)
T0D18 205:135 JLINK_SetSpeed(5000) (0000ms, 30756ms total)
T0D18 205:135 JLINK_GetId() >0x10B TIF>Found SW-DP with ID 0x0BB11477 >0x0D TIF> >0x28 TIF> >0x0D TIF> >0x28 TIF> >0x0D TIF> >0x28 TIF> >0x0D TIF> >0x28 TIF> >0x0D TIF> >0x21 TIF> >0x0D TIF> >0x28 TIF> >0x0D TIF> >0x28 TIF> >0x0D TIF> >0x28 TIF> >0x0D TIF> >0x21 TIF> >0x0D TIF> >0x21 TIF> >0x0D TIF> >0x28 TIF> >0x0D TIF> >0x21 TIF> >0x0D TIF> >0x21 TIF> >0x0D TIF> >0x28 TIF> >0x0D TIF> >0x21 TIF> >0x0D TIF> >0x21 TIF> >0x0D TIF> >0x28 TIF> >0x0D TIF> >0x28 TIF> >0x0D TIF> >0x28 TIF> >0x0D TIF> >0x21 TIF>
 >0x0D TIF> >0x21 TIF> >0x0D TIF> >0x28 TIF> >0x0D TIF> >0x28 TIF> >0x0D TIF> >0x28 TIF> >0x0D TIF> >0x21 TIF> >0x0D TIF> >0x21 TIF> >0x0D TIF> >0x28 TIF> >0x0D TIF> >0x21 TIF> >0x0D TIF> >0x21 TIF> >0x0D TIF> >0x28 TIF> >0x0D TIF> >0x21 TIF> >0x0D TIF> >0x21 TIF> >0x0D TIF> >0x28 TIF> >0x0D TIF> >0x21 TIF> >0x0D TIF> >0x21 TIF> >0x0D TIF> >0x28 TIF> >0x0D TIF> >0x21 TIF> >0x0D TIF> >0x21 TIF> >0x0D TIF> >0x28 TIF> >0x0D TIF> >0x21 TIF> >0x0D TIF> >0x21 TIF> >0x10B TIF>Found SW-DP with ID 0x0BB11477
 >0x0D TIF> >0x28 TIF> >0x0D TIF> >0x28 TIF> >0x0D TIF> >0x28 TIF> >0x0D TIF> >0x28 TIF> >0x0D TIF> >0x21 TIF> >0x0D TIF> >0x28 TIF>Scanning AP map to find all available APs >0x0D TIF> >0x28 TIF> >0x0D TIF> >0x21 TIF> >0x0D TIF> >0x21 TIF> >0x0D TIF> >0x28 TIF> >0x0D TIF> >0x21 TIF> >0x0D TIF> >0x21 TIF>AP[1]: Stopped AP scan as end of AP map has been reachedAP[0]: AHB-AP (IDR: 0x04770021)Iterating through AP map to find AHB-AP to use >0x42 TIF> >0x28 TIF> >0x0D TIF> >0x28 TIF> >0x0D TIF> >0x21 TIF>
 >0x0D TIF> >0x21 TIF> >0x42 TIF> >0x28 TIF> >0x0D TIF> >0x28 TIF> >0x0D TIF> >0x28 TIF> >0x0D TIF> >0x21 TIF> >0x0D TIF> >0x21 TIF>AP[0]: Core foundAP[0]: AHB-AP ROM base: 0xE00FF000 >0x0D TIF> >0x28 TIF> >0x0D TIF> >0x28 TIF> >0x0D TIF> >0x28 TIF> >0x0D TIF> >0x21 TIF> >0x0D TIF> >0x21 TIF>CPUID register: 0x410CC200. Implementer code: 0x41 (ARM)Found Cortex-M0 r0p0, Little endian. -- Max. mem block: 0x00002408 -- CPU_ReadMem(4 bytes @ 0xE000EDF0) -- CPU_ReadMem(4 bytes @ 0xE0002000)
FPUnit: 4 code (BP) slots and 0 literal slots -- CPU_ReadMem(4 bytes @ 0xE000EDFC) -- CPU_ReadMem(4 bytes @ 0xE0001000) -- CPU_WriteMem(4 bytes @ 0xE0001000)CoreSight components:ROMTbl[0] @ E00FF000 -- CPU_ReadMem(16 bytes @ 0xE00FF000) -- CPU_ReadMem(16 bytes @ 0xE000EFF0) -- CPU_ReadMem(16 bytes @ 0xE000EFE0)ROMTbl[0][0]: E000E000, CID: B105E00D, PID: 000BB008 SCS -- CPU_ReadMem(16 bytes @ 0xE0001FF0) -- CPU_ReadMem(16 bytes @ 0xE0001FE0)ROMTbl[0][1]: E0001000, CID: B105E00D, PID: 000BB00A DWT
 -- CPU_ReadMem(16 bytes @ 0xE0002FF0) -- CPU_ReadMem(16 bytes @ 0xE0002FE0)ROMTbl[0][2]: E0002000, CID: B105E00D, PID: 000BB00B FPB >0x0D TIF> >0x21 TIF>  returns 0x0BB11477 (0192ms, 30948ms total)
T0D18 205:327 JLINK_GetDLLVersion()  returns 64000 (0001ms, 30949ms total)
T0D18 205:328 JLINK_CORE_GetFound()  returns 0x60000FF (0000ms, 30949ms total)
T0D18 205:328 JLINK_GetDebugInfo(0x100 = JLINKARM_ROM_TABLE_ADDR_INDEX) -- Value=0xE00FF000  returns 0x00 (0000ms, 30949ms total)
T0D18 205:328 JLINK_GetDebugInfo(0x100 = JLINKARM_ROM_TABLE_ADDR_INDEX) -- Value=0xE00FF000  returns 0x00 (0000ms, 30949ms total)
T0D18 205:328 JLINK_GetDebugInfo(0x101 = JLINKARM_DEBUG_INFO_ETM_ADDR_INDEX) -- Value=0x00000000  returns 0x00 (0000ms, 30949ms total)
T0D18 205:328 JLINK_ReadMemEx(0xE0041FF0, 0x0010 Bytes, ..., Flags = 0x02000004) -- CPU_ReadMem(16 bytes @ 0xE0041FF0) - Data: 00 00 00 00 00 00 00 00 00 00 00 00 00 00 00 00  returns 0x10 (0001ms, 30950ms total)
T0D18 205:329 JLINK_GetDebugInfo(0x102 = JLINKARM_DEBUG_INFO_MTB_ADDR_INDEX) -- Value=0x00000000  returns 0x00 (0000ms, 30950ms total)
T0D18 205:329 JLINK_GetDebugInfo(0x103 = JLINKARM_DEBUG_INFO_TPIU_ADDR_INDEX) -- Value=0x00000000  returns 0x00 (0000ms, 30950ms total)
T0D18 205:329 JLINK_ReadMemEx(0xE0040FF0, 0x0010 Bytes, ..., Flags = 0x02000004) -- CPU_ReadMem(16 bytes @ 0xE0040FF0) - Data: 00 00 00 00 00 00 00 00 00 00 00 00 00 00 00 00  returns 0x10 (0001ms, 30951ms total)
T0D18 205:330 JLINK_GetDebugInfo(0x104 = JLINKARM_DEBUG_INFO_ITM_ADDR_INDEX) -- Value=0xE0000000  returns 0x00 (0000ms, 30951ms total)
T0D18 205:330 JLINK_GetDebugInfo(0x105 = JLINKARM_DEBUG_INFO_DWT_ADDR_INDEX) -- Value=0xE0001000  returns 0x00 (0000ms, 30951ms total)
T0D18 205:330 JLINK_GetDebugInfo(0x106 = JLINKARM_DEBUG_INFO_FPB_ADDR_INDEX) -- Value=0xE0002000  returns 0x00 (0000ms, 30951ms total)
T0D18 205:330 JLINK_GetDebugInfo(0x107 = JLINKARM_DEBUG_INFO_NVIC_ADDR_INDEX) -- Value=0xE000E000  returns 0x00 (0000ms, 30951ms total)
T0D18 205:330 JLINK_GetDebugInfo(0x10C = JLINKARM_DEBUG_INFO_DBG_ADDR_INDEX) -- Value=0xE000EDF0  returns 0x00 (0000ms, 30951ms total)
T0D18 205:330 JLINK_GetDebugInfo(0x01 = Unknown) -- Value=0x00000000  returns 0x00 (0000ms, 30951ms total)
T0D18 205:330 JLINK_ReadMemU32(0xE000ED00, 0x0001 Items, ...) -- CPU_ReadMem(4 bytes @ 0xE000ED00) - Data: 00 C2 0C 41  returns 1 (0001ms, 30952ms total)
T0D18 205:331 JLINK_GetDebugInfo(0x10F = JLINKARM_DEBUG_INFO_HAS_CORTEX_M_SECURITY_EXT_INDEX) -- Value=0x00000000  returns 0x00 (0000ms, 30952ms total)
T0D18 205:331 JLINK_SetResetType(JLINKARM_CM3_RESET_TYPE_NORMAL)  returns JLINKARM_CM3_RESET_TYPE_NORMAL (0000ms, 30952ms total)
T0D18 205:331 JLINK_Reset() -- CPU is running -- CPU_WriteMem(4 bytes @ 0xE000EDF0) -- CPU is running -- CPU_WriteMem(4 bytes @ 0xE000EDFC)Reset: Halt core after reset via DEMCR.VC_CORERESET. >0x35 TIF>Reset: Reset device via AIRCR.SYSRESETREQ. -- CPU is running -- CPU_WriteMem(4 bytes @ 0xE000ED0C) >0x0D TIF> >0x28 TIF> -- CPU_ReadMem(4 bytes @ 0xE000EDF0) -- CPU_ReadMem(4 bytes @ 0xE000EDF0) -- CPU is running -- CPU_WriteMem(4 bytes @ 0xE000EDF0) -- CPU is running -- CPU_WriteMem(4 bytes @ 0xE000EDFC)
 -- CPU_ReadMem(4 bytes @ 0xE000EDF0) -- CPU_WriteMem(4 bytes @ 0xE0002000) -- CPU_ReadMem(4 bytes @ 0xE000EDFC) -- CPU_ReadMem(4 bytes @ 0xE0001000) -- CPU_WriteMem(4 bytes @ 0xE0001000) (0072ms, 31024ms total)
T0D18 205:403 JLINK_ReadReg(R15 (PC))  returns 0x080000C4 (0000ms, 31024ms total)
T0D18 205:403 JLINK_ReadReg(XPSR)  returns 0xC1000000 (0000ms, 31024ms total)
T0D18 205:404 JLINK_Halt()  returns 0x00 (0000ms, 31024ms total)
T0D18 205:404 JLINK_ReadMemU32(0xE000EDF0, 0x0001 Items, ...) -- CPU_ReadMem(4 bytes @ 0xE000EDF0) - Data: 03 00 03 00  returns 1 (0001ms, 31025ms total)
T0D18 205:405 JLINK_WriteU32(0xE000EDF0, 0xA05F0003) -- CPU_WriteMem(4 bytes @ 0xE000EDF0)  returns 0 (0001ms, 31026ms total)
T0D18 205:406 JLINK_WriteU32(0xE000EDFC, 0x01000000) -- CPU_WriteMem(4 bytes @ 0xE000EDFC)  returns 0 (0001ms, 31027ms total)
T0D18 205:407 JLINK_GetHWStatus(...)  returns 0x00 (0000ms, 31027ms total)
T0D18 205:407 JLINK_GetNumBPUnits(Type = 0xFFFFFF00)  returns 0x04 (0000ms, 31027ms total)
T0D18 205:407 JLINK_GetNumBPUnits(Type = 0xF0)  returns 0x2000 (0000ms, 31027ms total)
T0D18 205:407 JLINK_GetNumWPUnits()  returns 0x02 (0000ms, 31027ms total)
T0D18 205:408 JLINK_GetSpeed()  returns 0xFA0 (0000ms, 31027ms total)
T0D18 205:408 JLINK_ReadMemU32(0xE000E004, 0x0001 Items, ...) -- CPU_ReadMem(4 bytes @ 0xE000E004) - Data: 00 00 00 00  returns 1 (0001ms, 31028ms total)
T0D18 205:409 JLINK_ReadReg(R15 (PC))  returns 0x080000C4 (0000ms, 31028ms total)
T0D18 205:409 JLINK_ReadReg(XPSR)  returns 0xC1000000 (0000ms, 31028ms total)
T0D18 205:473 JLINK_WriteMemEx(0x08000000, 0x1000 Bytes, ..., Flags = 0x02000000) - Data: F0 08 00 20 C5 00 00 08 A5 3B 00 08 ED 36 00 08 ...  returns 0x1000 (0001ms, 31029ms total)
T0D18 205:475 JLINK_WriteMemEx(0x08001000, 0x1000 Bytes, ..., Flags = 0x02000000) - Data: 54 30 01 83 A2 48 00 68 38 30 01 83 A0 48 00 68 ...  returns 0x1000 (0000ms, 31029ms total)
T0D18 205:476 JLINK_WriteMemEx(0x08002000, 0x1000 Bytes, ..., Flags = 0x02000000) - Data: 08 43 04 49 48 60 08 46 80 68 02 21 08 43 01 49 ...  returns 0x1000 (0001ms, 31030ms total)
T0D18 205:479 JLINK_WriteMemEx(0x08003000, 0x1000 Bytes, ..., Flags = 0x02000000) - Data: 12 48 FD F7 6D F8 70 43 05 46 02 E0 10 48 35 46 ...  returns 0x1000 (0000ms, 31030ms total)
T0D18 205:481 JLINK_WriteMemEx(0x08004000, 0x0C64 Bytes, ..., Flags = 0x02000000) - Data: 08 60 00 BD 00 20 00 40 40 00 00 20 CF 07 00 00 ...  returns 0xC64 (0000ms, 31030ms total)
T0D18 205:537 JLINK_SetResetType(JLINKARM_CM3_RESET_TYPE_NORMAL)  returns JLINKARM_CM3_RESET_TYPE_NORMAL (0000ms, 31030ms total)
T0D18 205:537 JLINK_Reset()Old firmware which does not support pausing periodic actions during flash download -- CPU_ReadMem(4 bytes @ 0xE000ED90) -- -------------------------------------- -- Start of determining dirty areas in flash cache -- End of determining dirty areas -- Start of preparing flash programming -- Calculating RAM usage -- RAM usage = 4028 Bytes -- Preserving CPU registers -- Preparing memory -- Preparing target -- Downloading RAMCode -- Checking target RAM -- Preparing RAMCode
 -- End of preparing flash programming -- CPU speed could not be measured. -- Start of comparing flash -- CRC check was estimated as fastest method -- Comparing range 0x8000000 - 0x8004FFF (20 Sectors, 20 KB), using multi-block CRC calculation -- All CRCs match -- Comparing range 0x8000000 - 0x8004FFF (20 Sectors, 20 KB), using alternative multi-block CRC calculation -- All CRCs match -- End of comparing flash -- Start of erasing sectors -- End of erasing sectors -- Start of flash programming
 -- End of flash programming -- Start of verifying flash -- End of verifying flash -- Start of restoring -- Restoring RAMCode -- Restore target -- Restore memory -- Restoring CPU registers -- End of restoring -- Bank 0 @ 0x08000000: Skipped. Contents already match -- Bank 0 @ 0x08000000: Skipped. Contents already match -- CPU_WriteMem(4 bytes @ 0xE0002000) -- CPU_ReadMem(4 bytes @ 0xE0002008) -- CPU_WriteMem(4 bytes @ 0xE000EDF4) -- CPU_ReadMem(4 bytes @ 0xE000EDF8) -- CPU_WriteMem(4 bytes @ 0xE0002008)
 -- CPU_WriteMem(4 bytes @ 0xE000EDF8) -- CPU_WriteMem(4 bytes @ 0xE000EDF4) -- CPU_WriteMem(4 bytes @ 0xE000EDF0) -- CPU_WriteMem(4 bytes @ 0xE000EDF0) -- CPU_ReadMem(4 bytes @ 0xE000EDF0) -- CPU_WriteMem(4 bytes @ 0xE000EDF0) -- CPU_WriteMem(4 bytes @ 0xE0002008) -- CPU_WriteMem(4 bytes @ 0xE000EDF8) -- CPU_WriteMem(4 bytes @ 0xE000EDF4) -- CPU_ReadMem(4 bytes @ 0x200006DC) -- CPU_WriteMem(4 bytes @ 0x200006DC) -- CPU_WriteMem(4 bytes @ 0xE000EDF0) -- CPU_WriteMem(4 bytes @ 0xE000EDFC)
Reset: Halt core after reset via DEMCR.VC_CORERESET. >0x35 TIF>Reset: Reset device via AIRCR.SYSRESETREQ. -- CPU_WriteMem(4 bytes @ 0xE000ED0C) >0x0D TIF> >0x28 TIF> -- CPU_ReadMem(4 bytes @ 0xE000EDF0) -- CPU_ReadMem(4 bytes @ 0xE000EDF0) -- CPU_WriteMem(4 bytes @ 0xE000EDF0) -- CPU_WriteMem(4 bytes @ 0xE000EDFC) -- CPU_ReadMem(4 bytes @ 0xE000EDF0) -- CPU_WriteMem(4 bytes @ 0xE0002000) -- CPU_ReadMem(4 bytes @ 0xE000EDFC) -- CPU_ReadMem(4 bytes @ 0xE0001000) -- CPU_WriteMem(4 bytes @ 0xE0001000)
 (0258ms, 31288ms total)
T0D18 205:796 JLINK_ReadReg(R15 (PC))  returns 0x080000C4 (0000ms, 31288ms total)
T0D18 205:796 JLINK_ReadReg(XPSR)  returns 0xC1000000 (0000ms, 31288ms total)
T0D18 205:796 JLINK_ReadReg(R0)  returns 0xFFFFFFFF (0000ms, 31288ms total)
T0D18 205:796 JLINK_ReadReg(R1)  returns 0xFFFFFFFF (0000ms, 31288ms total)
T0D18 205:796 JLINK_ReadReg(R2)  returns 0xFFFFFFFF (0000ms, 31288ms total)
T0D18 205:796 JLINK_ReadReg(R3)  returns 0xFFFFFFFF (0000ms, 31288ms total)
T0D18 205:796 JLINK_ReadReg(R4)  returns 0xFFFFFFFF (0000ms, 31288ms total)
T0D18 205:796 JLINK_ReadReg(R5)  returns 0xFFFFFFFF (0000ms, 31288ms total)
T0D18 205:796 JLINK_ReadReg(R6)  returns 0xFFFFFFFF (0000ms, 31288ms total)
T0D18 205:796 JLINK_ReadReg(R7)  returns 0xFFFFFFFF (0000ms, 31288ms total)
T0D18 205:796 JLINK_ReadReg(R8)  returns 0xFFFFFFFF (0000ms, 31288ms total)
T0D18 205:796 JLINK_ReadReg(R9)  returns 0xFFFFFFFF (0000ms, 31288ms total)
T0D18 205:796 JLINK_ReadReg(R10)  returns 0xFFFFFFFF (0000ms, 31288ms total)
T0D18 205:796 JLINK_ReadReg(R11)  returns 0xFFFFFFFF (0000ms, 31288ms total)
T0D18 205:796 JLINK_ReadReg(R12)  returns 0xFFFFFFFF (0000ms, 31288ms total)
T0D18 205:796 JLINK_ReadReg(R13 (SP))  returns 0x200008F0 (0000ms, 31288ms total)
T0D18 205:796 JLINK_ReadReg(R14)  returns 0xFFFFFFFF (0000ms, 31288ms total)
T0D18 205:797 JLINK_ReadReg(R15 (PC))  returns 0x080000C4 (0000ms, 31289ms total)
T0D18 205:797 JLINK_ReadReg(XPSR)  returns 0xC1000000 (0000ms, 31289ms total)
T0D18 205:797 JLINK_ReadReg(MSP)  returns 0x200008F0 (0000ms, 31289ms total)
T0D18 205:797 JLINK_ReadReg(PSP)  returns 0xFFFFFFFC (0000ms, 31289ms total)
T0D18 205:797 JLINK_ReadReg(CFBP)  returns 0x00000000 (0000ms, 31289ms total)
T0D18 206:340 JLINK_ReadMemEx(0x080000C4, 0x003C Bytes, ..., Flags = 0x02000000) -- Read from flash cache (60 bytes @ 0x080000C4) - Data: 04 48 80 47 04 48 00 47 FE E7 FE E7 FE E7 FE E7 ...  returns 0x3C (0000ms, 31289ms total)
T11B0 209:645 JLINK_ReadMemEx(0x080000C4, 0x0002 Bytes, ..., Flags = 0x02000000) -- Read from flash cache (2 bytes @ 0x080000C4) - Data: 04 48  returns 0x02 (0000ms, 31323ms total)
T11B0 209:646 JLINK_SetBPEx(Addr = 0x08004978, Type = 0xFFFFFFF2)  returns 0x00000001 (0000ms, 31323ms total)
T11B0 209:646 JLINK_SetBPEx(Addr = 0x080012BC, Type = 0xFFFFFFF2)  returns 0x00000002 (0000ms, 31323ms total)
T11B0 209:646 JLINK_Go() -- CPU_WriteMem(4 bytes @ 0xE0002000) -- CPU_WriteMem(4 bytes @ 0xE0002000) -- CPU_ReadMem(4 bytes @ 0xE0001000) -- CPU_WriteMem(4 bytes @ 0xE0001000) -- CPU_WriteMem(4 bytes @ 0xE0002008) -- CPU_WriteMem(4 bytes @ 0xE000200C) -- CPU_WriteMem(4 bytes @ 0xE0002010) -- CPU_WriteMem(4 bytes @ 0xE0002014) -- CPU_WriteMem(4 bytes @ 0xE0001004) (0005ms, 31328ms total)
T11B0 209:752 JLINK_IsHalted()  returns TRUE (0003ms, 31331ms total)
T11B0 209:755 JLINK_Halt()  returns 0x00 (0000ms, 31328ms total)
T11B0 209:755 JLINK_IsHalted()  returns TRUE (0000ms, 31328ms total)
T11B0 209:755 JLINK_IsHalted()  returns TRUE (0000ms, 31328ms total)
T11B0 209:755 JLINK_IsHalted()  returns TRUE (0000ms, 31328ms total)
T11B0 209:755 JLINK_ReadReg(R15 (PC))  returns 0x08004978 (0000ms, 31328ms total)
T11B0 209:755 JLINK_ReadReg(XPSR)  returns 0x61000000 (0000ms, 31328ms total)
T11B0 209:755 JLINK_ClrBPEx(BPHandle = 0x00000001)  returns 0x00 (0000ms, 31328ms total)
T11B0 209:755 JLINK_ClrBPEx(BPHandle = 0x00000002)  returns 0x00 (0000ms, 31328ms total)
T11B0 209:755 JLINK_ReadMemU32(0xE000ED30, 0x0001 Items, ...) -- CPU_ReadMem(4 bytes @ 0xE000ED30) - Data: 03 00 00 00  returns 1 (0002ms, 31330ms total)
T11B0 209:757 JLINK_ReadMemU32(0xE0001028, 0x0001 Items, ...) -- CPU_ReadMem(4 bytes @ 0xE0001028) - Data: 00 00 00 00  returns 1 (0001ms, 31331ms total)
T11B0 209:758 JLINK_ReadMemU32(0xE0001038, 0x0001 Items, ...) -- CPU_ReadMem(4 bytes @ 0xE0001038) - Data: 00 00 00 00  returns 1 (0001ms, 31332ms total)
T11B0 209:759 JLINK_ReadReg(R0)  returns 0x08004979 (0000ms, 31332ms total)
T11B0 209:759 JLINK_ReadReg(R1)  returns 0x200008F0 (0000ms, 31332ms total)
T11B0 209:759 JLINK_ReadReg(R2)  returns 0x00000000 (0000ms, 31332ms total)
T11B0 209:759 JLINK_ReadReg(R3)  returns 0x08004651 (0000ms, 31332ms total)
T11B0 209:759 JLINK_ReadReg(R4)  returns 0x08004BAC (0000ms, 31332ms total)
T11B0 209:759 JLINK_ReadReg(R5)  returns 0x00000001 (0000ms, 31332ms total)
T11B0 209:759 JLINK_ReadReg(R6)  returns 0x08004BAC (0000ms, 31332ms total)
T11B0 209:759 JLINK_ReadReg(R7)  returns 0xFFFFFFFF (0000ms, 31332ms total)
T11B0 209:759 JLINK_ReadReg(R8)  returns 0xFFFFFFFF (0000ms, 31332ms total)
T11B0 209:759 JLINK_ReadReg(R9)  returns 0xFFFFFFFF (0000ms, 31332ms total)
T11B0 209:759 JLINK_ReadReg(R10)  returns 0xFFFFFFFF (0000ms, 31332ms total)
T11B0 209:759 JLINK_ReadReg(R11)  returns 0xFFFFFFFF (0000ms, 31332ms total)
T11B0 209:759 JLINK_ReadReg(R12)  returns 0xFFFFFFFF (0000ms, 31332ms total)
T11B0 209:759 JLINK_ReadReg(R13 (SP))  returns 0x200008F0 (0000ms, 31332ms total)
T11B0 209:759 JLINK_ReadReg(R14)  returns 0x08000579 (0000ms, 31332ms total)
T11B0 209:759 JLINK_ReadReg(R15 (PC))  returns 0x08004978 (0000ms, 31332ms total)
T11B0 209:759 JLINK_ReadReg(XPSR)  returns 0x61000000 (0000ms, 31332ms total)
T11B0 209:760 JLINK_ReadReg(MSP)  returns 0x200008F0 (0000ms, 31333ms total)
T11B0 209:760 JLINK_ReadReg(PSP)  returns 0xFFFFFFFC (0000ms, 31333ms total)
T11B0 209:760 JLINK_ReadReg(CFBP)  returns 0x00000000 (0000ms, 31333ms total)
T0D18 209:778 JLINK_ReadMemEx(0x00000000, 0x0001 Bytes, ..., Flags = 0x02000000) -- CPU_ReadMem(4 bytes @ 0x00000004) -- Read from flash cache (1 bytes @ 0x08000000) - Data: F0  returns 0x01 (0001ms, 31334ms total)
T11B0 211:740 JLINK_ReadMemEx(0x08004978, 0x0002 Bytes, ..., Flags = 0x02000000) -- Read from flash cache (2 bytes @ 0x08004978) - Data: FF B0  returns 0x02 (0000ms, 31334ms total)
T11B0 211:740 JLINK_SetBPEx(Addr = 0x080012BC, Type = 0xFFFFFFF2)  returns 0x00000003 (0000ms, 31334ms total)
T11B0 211:740 JLINK_Go() -- CPU_WriteMem(4 bytes @ 0xE0002000) -- CPU_ReadMem(4 bytes @ 0xE0001000) -- CPU_WriteMem(4 bytes @ 0xE0001000) -- CPU_WriteMem(4 bytes @ 0xE0002008) -- CPU_WriteMem(4 bytes @ 0xE000200C) (0005ms, 31339ms total)
T11B0 211:846 JLINK_IsHalted()  returns TRUE (0003ms, 31343ms total)
T11B0 211:849 JLINK_Halt()  returns 0x00 (0001ms, 31341ms total)
T11B0 211:850 JLINK_IsHalted()  returns TRUE (0000ms, 31341ms total)
T11B0 211:850 JLINK_IsHalted()  returns TRUE (0000ms, 31341ms total)
T11B0 211:850 JLINK_IsHalted()  returns TRUE (0000ms, 31341ms total)
T11B0 211:850 JLINK_ReadReg(R15 (PC))  returns 0x080012BC (0000ms, 31341ms total)
T11B0 211:850 JLINK_ReadReg(XPSR)  returns 0x01000000 (0000ms, 31341ms total)
T11B0 211:850 JLINK_ClrBPEx(BPHandle = 0x00000003)  returns 0x00 (0000ms, 31341ms total)
T11B0 211:851 JLINK_ReadMemU32(0xE000ED30, 0x0001 Items, ...) -- CPU_ReadMem(4 bytes @ 0xE000ED30) - Data: 03 00 00 00  returns 1 (0001ms, 31343ms total)
T11B0 211:852 JLINK_ReadMemU32(0xE0001028, 0x0001 Items, ...) -- CPU_ReadMem(4 bytes @ 0xE0001028) - Data: 00 00 00 00  returns 1 (0001ms, 31344ms total)
T11B0 211:853 JLINK_ReadMemU32(0xE0001038, 0x0001 Items, ...) -- CPU_ReadMem(4 bytes @ 0xE0001038) - Data: 00 00 00 00  returns 1 (0001ms, 31345ms total)
T11B0 211:855 JLINK_ReadReg(R0)  returns 0x200006D4 (0000ms, 31345ms total)
T11B0 211:855 JLINK_ReadReg(R1)  returns 0x2000000C (0000ms, 31345ms total)
T11B0 211:855 JLINK_ReadReg(R2)  returns 0x200006D4 (0000ms, 31345ms total)
T11B0 211:855 JLINK_ReadReg(R3)  returns 0x20000344 (0000ms, 31345ms total)
T11B0 211:855 JLINK_ReadReg(R4)  returns 0x00000000 (0000ms, 31345ms total)
T11B0 211:855 JLINK_ReadReg(R5)  returns 0x20000798 (0000ms, 31345ms total)
T11B0 211:855 JLINK_ReadReg(R6)  returns 0x08004BAC (0001ms, 31346ms total)
T11B0 211:856 JLINK_ReadReg(R7)  returns 0xFFFFFFFF (0000ms, 31346ms total)
T11B0 211:856 JLINK_ReadReg(R8)  returns 0xFFFFFFFF (0000ms, 31346ms total)
T11B0 211:856 JLINK_ReadReg(R9)  returns 0xFFFFFFFF (0000ms, 31346ms total)
T11B0 211:856 JLINK_ReadReg(R10)  returns 0xFFFFFFFF (0000ms, 31346ms total)
T11B0 211:856 JLINK_ReadReg(R11)  returns 0xFFFFFFFF (0000ms, 31346ms total)
T11B0 211:856 JLINK_ReadReg(R12)  returns 0xFFFFFFFF (0000ms, 31346ms total)
T11B0 211:856 JLINK_ReadReg(R13 (SP))  returns 0x20000640 (0001ms, 31347ms total)
T11B0 211:857 JLINK_ReadReg(R14)  returns 0x080049B5 (0000ms, 31347ms total)
T11B0 211:857 JLINK_ReadReg(R15 (PC))  returns 0x080012BC (0000ms, 31347ms total)
T11B0 211:857 JLINK_ReadReg(XPSR)  returns 0x01000000 (0000ms, 31347ms total)
T11B0 211:857 JLINK_ReadReg(MSP)  returns 0x20000640 (0000ms, 31347ms total)
T11B0 211:857 JLINK_ReadReg(PSP)  returns 0xFFFFFFFC (0000ms, 31347ms total)
T11B0 211:857 JLINK_ReadReg(CFBP)  returns 0x00000000 (0000ms, 31347ms total)
T0D18 211:858 JLINK_ReadMemEx(0x2000066C, 0x0004 Bytes, ..., Flags = 0x02000000) -- CPU_ReadMem(64 bytes @ 0x20000640) -- Updating C cache (64 bytes @ 0x20000640) -- Read from C cache (4 bytes @ 0x2000066C) - Data: B5 49 00 08  returns 0x04 (0002ms, 31349ms total)
T0D18 211:861 JLINK_ReadMemEx(0x2000065C, 0x0004 Bytes, ..., Flags = 0x02000000) -- Read from C cache (4 bytes @ 0x2000065C) - Data: 00 00 00 00  returns 0x04 (0000ms, 31349ms total)
T0D18 211:861 JLINK_ReadMemEx(0x20000660, 0x0004 Bytes, ..., Flags = 0x02000000) -- Read from C cache (4 bytes @ 0x20000660) - Data: 01 00 00 00  returns 0x04 (0000ms, 31349ms total)
T0D18 211:861 JLINK_ReadMemEx(0x20000664, 0x0004 Bytes, ..., Flags = 0x02000000) -- Read from C cache (4 bytes @ 0x20000664) - Data: AC 4B 00 08  returns 0x04 (0000ms, 31349ms total)
T0D18 211:861 JLINK_ReadMemEx(0x20000668, 0x0004 Bytes, ..., Flags = 0x02000000) -- Read from C cache (4 bytes @ 0x20000668) - Data: FF FF FF FF  returns 0x04 (0001ms, 31350ms total)
T0D18 211:862 JLINK_ReadMemEx(0x20000658, 0x0004 Bytes, ..., Flags = 0x02000000) -- Read from C cache (4 bytes @ 0x20000658) - Data: D4 06 00 20  returns 0x04 (0000ms, 31350ms total)
T0D18 211:862 JLINK_ReadMemEx(0x20000644, 0x0003 Bytes, ..., Flags = 0x02000000) -- Read from C cache (3 bytes @ 0x20000644) - Data: 00 C0 00  returns 0x03 (0001ms, 31351ms total)
T0D18 211:863 JLINK_ReadMemEx(0x00000000, 0x0001 Bytes, ..., Flags = 0x02000000) -- CPU_ReadMem(4 bytes @ 0x00000004) -- Read from flash cache (1 bytes @ 0x08000000) - Data: F0  returns 0x01 (0001ms, 31352ms total)
T0D18 211:864 JLINK_ReadMemEx(0x00000000, 0x0004 Bytes, ..., Flags = 0x02000000) -- Read from flash cache (4 bytes @ 0x08000000) - Data: F0 08 00 20  returns 0x04 (0000ms, 31352ms total)
T0D18 211:890 JLINK_ReadMemEx(0x080012BC, 0x003C Bytes, ..., Flags = 0x02000000) -- Read from flash cache (60 bytes @ 0x080012BC) - Data: 00 24 8A E0 C3 48 00 78 02 28 01 D1 0A 2C 05 D0 ...  returns 0x3C (0000ms, 31352ms total)
T11B0 214:920 JLINK_ReadMemEx(0x080012BC, 0x0002 Bytes, ..., Flags = 0x02000000) -- Read from flash cache (2 bytes @ 0x080012BC) - Data: 00 24  returns 0x02 (0000ms, 31388ms total)
T11B0 214:920 JLINK_Step() -- Read from flash cache (2 bytes @ 0x080012BC) -- CPU_ReadMem(4 bytes @ 0xE000ED18) -- CPU_WriteMem(4 bytes @ 0xE000ED18) -- CPU_ReadMem(4 bytes @ 0xE000ED18) -- CPU_WriteMem(4 bytes @ 0xE000ED18) -- CPU_ReadMem(4 bytes @ 0xE0001004) -- Simulated  returns 0x00 (0004ms, 31392ms total)
T11B0 214:924 JLINK_ReadReg(R15 (PC))  returns 0x080012BE (0000ms, 31392ms total)
T11B0 214:924 JLINK_ReadReg(XPSR)  returns 0x41000000 (0000ms, 31392ms total)
T11B0 214:924 JLINK_Step() -- Read from flash cache (2 bytes @ 0x080012BE) -- Simulated  returns 0x00 (0000ms, 31392ms total)
T11B0 214:924 JLINK_ReadReg(R15 (PC))  returns 0x080013D6 (0000ms, 31392ms total)
T11B0 214:924 JLINK_ReadReg(XPSR)  returns 0x41000000 (0000ms, 31392ms total)
T11B0 214:924 JLINK_ReadMemEx(0x080013D4, 0x002C Bytes, ..., Flags = 0x02000000) -- Read from flash cache (44 bytes @ 0x080013D4) - Data: C4 B2 7C 48 00 68 FF 30 41 30 40 7D A0 42 00 DD ...  returns 0x2C (0000ms, 31392ms total)
T11B0 214:924 JLINK_ReadMemEx(0x08001400, 0x0010 Bytes, ..., Flags = 0x02000000) -- Read from flash cache (16 bytes @ 0x08001400) - Data: 36 02 32 43 8E 78 36 04 32 43 C9 78 09 06 0A 43  returns 0x10 (0000ms, 31392ms total)
T11B0 214:924 JLINK_ReadMemEx(0x080013D4, 0x0002 Bytes, ..., Flags = 0x02000000) -- Read from flash cache (2 bytes @ 0x080013D4) - Data: C4 B2  returns 0x02 (0000ms, 31392ms total)
T11B0 214:924 JLINK_ReadMemEx(0x080013D6, 0x0002 Bytes, ..., Flags = 0x02000000) -- Read from flash cache (2 bytes @ 0x080013D6) - Data: 7C 48  returns 0x02 (0000ms, 31392ms total)
T11B0 214:925 JLINK_ReadMemEx(0x080013D6, 0x0002 Bytes, ..., Flags = 0x02000000) -- Read from flash cache (2 bytes @ 0x080013D6) - Data: 7C 48  returns 0x02 (0000ms, 31393ms total)
T11B0 214:925 JLINK_ReadMemEx(0x080013D8, 0x0028 Bytes, ..., Flags = 0x02000000) -- Read from flash cache (40 bytes @ 0x080013D8) - Data: 00 68 FF 30 41 30 40 7D A0 42 00 DD 6C E7 00 24 ...  returns 0x28 (0000ms, 31393ms total)
T11B0 214:925 JLINK_ReadMemEx(0x08001400, 0x0014 Bytes, ..., Flags = 0x02000000) -- Read from flash cache (20 bytes @ 0x08001400) - Data: 36 02 32 43 8E 78 36 04 32 43 C9 78 09 06 0A 43 ...  returns 0x14 (0000ms, 31393ms total)
T11B0 214:925 JLINK_ReadMemEx(0x080013D8, 0x0002 Bytes, ..., Flags = 0x02000000) -- Read from flash cache (2 bytes @ 0x080013D8) - Data: 00 68  returns 0x02 (0000ms, 31393ms total)
T11B0 214:925 JLINK_Step() -- Read from flash cache (2 bytes @ 0x080013D6) -- Read from flash cache (4 bytes @ 0x080015C8) -- Simulated  returns 0x00 (0000ms, 31393ms total)
T11B0 214:925 JLINK_ReadReg(R15 (PC))  returns 0x080013D8 (0000ms, 31393ms total)
T11B0 214:925 JLINK_ReadReg(XPSR)  returns 0x41000000 (0000ms, 31393ms total)
T11B0 214:925 JLINK_ReadMemEx(0x080013D8, 0x0028 Bytes, ..., Flags = 0x02000000) -- Read from flash cache (40 bytes @ 0x080013D8) - Data: 00 68 FF 30 41 30 40 7D A0 42 00 DD 6C E7 00 24 ...  returns 0x28 (0000ms, 31393ms total)
T11B0 214:925 JLINK_ReadMemEx(0x08001400, 0x0014 Bytes, ..., Flags = 0x02000000) -- Read from flash cache (20 bytes @ 0x08001400) - Data: 36 02 32 43 8E 78 36 04 32 43 C9 78 09 06 0A 43 ...  returns 0x14 (0000ms, 31393ms total)
T11B0 214:925 JLINK_ReadMemEx(0x080013D8, 0x0002 Bytes, ..., Flags = 0x02000000) -- Read from flash cache (2 bytes @ 0x080013D8) - Data: 00 68  returns 0x02 (0000ms, 31393ms total)
T11B0 214:925 JLINK_ReadMemEx(0x080013DA, 0x0002 Bytes, ..., Flags = 0x02000000) -- Read from flash cache (2 bytes @ 0x080013DA) - Data: FF 30  returns 0x02 (0000ms, 31393ms total)
T11B0 214:925 JLINK_Step() -- Read from flash cache (2 bytes @ 0x080013D8) -- CPU_ReadMem(64 bytes @ 0x20000000) -- Updating C cache (64 bytes @ 0x20000000) -- Read from C cache (4 bytes @ 0x20000008) -- Simulated  returns 0x00 (0002ms, 31395ms total)
T11B0 214:927 JLINK_ReadReg(R15 (PC))  returns 0x080013DA (0000ms, 31395ms total)
T11B0 214:927 JLINK_ReadReg(XPSR)  returns 0x41000000 (0000ms, 31395ms total)
T11B0 214:927 JLINK_ReadMemEx(0x080013DA, 0x0002 Bytes, ..., Flags = 0x02000000) -- Read from flash cache (2 bytes @ 0x080013DA) - Data: FF 30  returns 0x02 (0000ms, 31395ms total)
T11B0 214:927 JLINK_ReadMemEx(0x080013DC, 0x0024 Bytes, ..., Flags = 0x02000000) -- Read from flash cache (36 bytes @ 0x080013DC) - Data: 41 30 40 7D A0 42 00 DD 6C E7 00 24 3E E0 20 01 ...  returns 0x24 (0000ms, 31395ms total)
T11B0 214:927 JLINK_ReadMemEx(0x08001400, 0x0018 Bytes, ..., Flags = 0x02000000) -- Read from flash cache (24 bytes @ 0x08001400) - Data: 36 02 32 43 8E 78 36 04 32 43 C9 78 09 06 0A 43 ...  returns 0x18 (0000ms, 31395ms total)
T11B0 214:927 JLINK_ReadMemEx(0x080013DC, 0x0002 Bytes, ..., Flags = 0x02000000) -- Read from flash cache (2 bytes @ 0x080013DC) - Data: 41 30  returns 0x02 (0000ms, 31395ms total)
T11B0 214:927 JLINK_Step() -- Read from flash cache (2 bytes @ 0x080013DA) -- Simulated  returns 0x00 (0000ms, 31395ms total)
T11B0 214:927 JLINK_ReadReg(R15 (PC))  returns 0x080013DC (0000ms, 31395ms total)
T11B0 214:927 JLINK_ReadReg(XPSR)  returns 0x01000000 (0000ms, 31395ms total)
T11B0 214:927 JLINK_ReadMemEx(0x080013DC, 0x0024 Bytes, ..., Flags = 0x02000000) -- Read from flash cache (36 bytes @ 0x080013DC) - Data: 41 30 40 7D A0 42 00 DD 6C E7 00 24 3E E0 20 01 ...  returns 0x24 (0001ms, 31396ms total)
T11B0 214:928 JLINK_ReadMemEx(0x08001400, 0x0018 Bytes, ..., Flags = 0x02000000) -- Read from flash cache (24 bytes @ 0x08001400) - Data: 36 02 32 43 8E 78 36 04 32 43 C9 78 09 06 0A 43 ...  returns 0x18 (0000ms, 31396ms total)
T11B0 214:928 JLINK_ReadMemEx(0x080013DC, 0x0002 Bytes, ..., Flags = 0x02000000) -- Read from flash cache (2 bytes @ 0x080013DC) - Data: 41 30  returns 0x02 (0000ms, 31396ms total)
T11B0 214:928 JLINK_ReadMemEx(0x080013DE, 0x0002 Bytes, ..., Flags = 0x02000000) -- Read from flash cache (2 bytes @ 0x080013DE) - Data: 40 7D  returns 0x02 (0000ms, 31396ms total)
T11B0 214:928 JLINK_Step() -- Read from flash cache (2 bytes @ 0x080013DC) -- Simulated  returns 0x00 (0000ms, 31396ms total)
T11B0 214:928 JLINK_ReadReg(R15 (PC))  returns 0x080013DE (0000ms, 31396ms total)
T11B0 214:928 JLINK_ReadReg(XPSR)  returns 0x01000000 (0000ms, 31396ms total)
T11B0 214:928 JLINK_ReadMemEx(0x080013DE, 0x0002 Bytes, ..., Flags = 0x02000000) -- Read from flash cache (2 bytes @ 0x080013DE) - Data: 40 7D  returns 0x02 (0000ms, 31396ms total)
T11B0 214:928 JLINK_ReadMemEx(0x080013E0, 0x0020 Bytes, ..., Flags = 0x02000000) -- Read from flash cache (32 bytes @ 0x080013E0) - Data: A0 42 00 DD 6C E7 00 24 3E E0 20 01 77 49 09 68 ...  returns 0x20 (0000ms, 31396ms total)
T11B0 214:928 JLINK_ReadMemEx(0x08001400, 0x001C Bytes, ..., Flags = 0x02000000) -- Read from flash cache (28 bytes @ 0x08001400) - Data: 36 02 32 43 8E 78 36 04 32 43 C9 78 09 06 0A 43 ...  returns 0x1C (0000ms, 31396ms total)
T11B0 214:928 JLINK_ReadMemEx(0x080013E0, 0x0002 Bytes, ..., Flags = 0x02000000) -- Read from flash cache (2 bytes @ 0x080013E0) - Data: A0 42  returns 0x02 (0000ms, 31396ms total)
T11B0 214:928 JLINK_Step() -- Read from flash cache (2 bytes @ 0x080013DE) -- CPU_ReadMem(64 bytes @ 0x200008C0) -- Updating C cache (64 bytes @ 0x200008C0) -- Read from C cache (1 bytes @ 0x200008ED) -- Simulated  returns 0x00 (0002ms, 31398ms total)
T11B0 214:930 JLINK_ReadReg(R15 (PC))  returns 0x080013E0 (0000ms, 31398ms total)
T11B0 214:930 JLINK_ReadReg(XPSR)  returns 0x01000000 (0000ms, 31398ms total)
T11B0 214:930 JLINK_ReadMemEx(0x080013E0, 0x0020 Bytes, ..., Flags = 0x02000000) -- Read from flash cache (32 bytes @ 0x080013E0) - Data: A0 42 00 DD 6C E7 00 24 3E E0 20 01 77 49 09 68 ...  returns 0x20 (0000ms, 31398ms total)
T11B0 214:930 JLINK_ReadMemEx(0x08001400, 0x001C Bytes, ..., Flags = 0x02000000) -- Read from flash cache (28 bytes @ 0x08001400) - Data: 36 02 32 43 8E 78 36 04 32 43 C9 78 09 06 0A 43 ...  returns 0x1C (0000ms, 31398ms total)
T11B0 214:930 JLINK_ReadMemEx(0x080013E0, 0x0002 Bytes, ..., Flags = 0x02000000) -- Read from flash cache (2 bytes @ 0x080013E0) - Data: A0 42  returns 0x02 (0000ms, 31398ms total)
T11B0 214:930 JLINK_ReadMemEx(0x080013E2, 0x0002 Bytes, ..., Flags = 0x02000000) -- Read from flash cache (2 bytes @ 0x080013E2) - Data: 00 DD  returns 0x02 (0000ms, 31398ms total)
T11B0 214:930 JLINK_Step() -- Read from flash cache (2 bytes @ 0x080013E0) -- Simulated  returns 0x00 (0000ms, 31398ms total)
T11B0 214:930 JLINK_ReadReg(R15 (PC))  returns 0x080013E2 (0000ms, 31398ms total)
T11B0 214:930 JLINK_ReadReg(XPSR)  returns 0x21000000 (0000ms, 31398ms total)
T11B0 214:930 JLINK_ReadMemEx(0x080013E2, 0x0002 Bytes, ..., Flags = 0x02000000) -- Read from flash cache (2 bytes @ 0x080013E2) - Data: 00 DD  returns 0x02 (0000ms, 31398ms total)
T11B0 214:930 JLINK_ReadMemEx(0x080013E4, 0x001C Bytes, ..., Flags = 0x02000000) -- Read from flash cache (28 bytes @ 0x080013E4) - Data: 6C E7 00 24 3E E0 20 01 77 49 09 68 40 18 01 23 ...  returns 0x1C (0001ms, 31399ms total)
T11B0 214:931 JLINK_ReadMemEx(0x08001400, 0x0020 Bytes, ..., Flags = 0x02000000) -- Read from flash cache (32 bytes @ 0x08001400) - Data: 36 02 32 43 8E 78 36 04 32 43 C9 78 09 06 0A 43 ...  returns 0x20 (0000ms, 31399ms total)
T11B0 214:931 JLINK_ReadMemEx(0x080013E4, 0x0002 Bytes, ..., Flags = 0x02000000) -- Read from flash cache (2 bytes @ 0x080013E4) - Data: 6C E7  returns 0x02 (0000ms, 31399ms total)
T11B0 214:931 JLINK_Step() -- Read from flash cache (2 bytes @ 0x080013E2) -- Simulated  returns 0x00 (0000ms, 31399ms total)
T11B0 214:931 JLINK_ReadReg(R15 (PC))  returns 0x080013E4 (0000ms, 31399ms total)
T11B0 214:931 JLINK_ReadReg(XPSR)  returns 0x21000000 (0000ms, 31399ms total)
T11B0 214:931 JLINK_ReadMemEx(0x080013E4, 0x001C Bytes, ..., Flags = 0x02000000) -- Read from flash cache (28 bytes @ 0x080013E4) - Data: 6C E7 00 24 3E E0 20 01 77 49 09 68 40 18 01 23 ...  returns 0x1C (0000ms, 31399ms total)
T11B0 214:931 JLINK_ReadMemEx(0x08001400, 0x0020 Bytes, ..., Flags = 0x02000000) -- Read from flash cache (32 bytes @ 0x08001400) - Data: 36 02 32 43 8E 78 36 04 32 43 C9 78 09 06 0A 43 ...  returns 0x20 (0000ms, 31399ms total)
T11B0 214:931 JLINK_ReadMemEx(0x080013E4, 0x0002 Bytes, ..., Flags = 0x02000000) -- Read from flash cache (2 bytes @ 0x080013E4) - Data: 6C E7  returns 0x02 (0000ms, 31399ms total)
T11B0 214:931 JLINK_ReadMemEx(0x080013E6, 0x0002 Bytes, ..., Flags = 0x02000000) -- Read from flash cache (2 bytes @ 0x080013E6) - Data: 00 24  returns 0x02 (0000ms, 31399ms total)
T11B0 214:931 JLINK_Step() -- Read from flash cache (2 bytes @ 0x080013E4) -- Simulated  returns 0x00 (0001ms, 31400ms total)
T11B0 214:932 JLINK_ReadReg(R15 (PC))  returns 0x080012C0 (0000ms, 31400ms total)
T11B0 214:932 JLINK_ReadReg(XPSR)  returns 0x21000000 (0000ms, 31400ms total)
T11B0 214:932 JLINK_ReadReg(R0)  returns 0x0000000C (0000ms, 31400ms total)
T11B0 214:932 JLINK_ReadReg(R1)  returns 0x2000000C (0000ms, 31400ms total)
T11B0 214:932 JLINK_ReadReg(R2)  returns 0x200006D4 (0000ms, 31400ms total)
T11B0 214:932 JLINK_ReadReg(R3)  returns 0x20000344 (0000ms, 31400ms total)
T11B0 214:932 JLINK_ReadReg(R4)  returns 0x00000000 (0000ms, 31400ms total)
T11B0 214:932 JLINK_ReadReg(R5)  returns 0x20000798 (0000ms, 31400ms total)
T11B0 214:932 JLINK_ReadReg(R6)  returns 0x08004BAC (0000ms, 31400ms total)
T11B0 214:932 JLINK_ReadReg(R7)  returns 0xFFFFFFFF (0000ms, 31400ms total)
T11B0 214:932 JLINK_ReadReg(R8)  returns 0xFFFFFFFF (0000ms, 31400ms total)
T11B0 214:932 JLINK_ReadReg(R9)  returns 0xFFFFFFFF (0000ms, 31400ms total)
T11B0 214:932 JLINK_ReadReg(R10)  returns 0xFFFFFFFF (0000ms, 31400ms total)
T11B0 214:932 JLINK_ReadReg(R11)  returns 0xFFFFFFFF (0000ms, 31400ms total)
T11B0 214:932 JLINK_ReadReg(R12)  returns 0xFFFFFFFF (0000ms, 31400ms total)
T11B0 214:932 JLINK_ReadReg(R13 (SP))  returns 0x20000640 (0000ms, 31400ms total)
T11B0 214:932 JLINK_ReadReg(R14)  returns 0x080049B5 (0000ms, 31400ms total)
T11B0 214:932 JLINK_ReadReg(R15 (PC))  returns 0x080012C0 (0000ms, 31400ms total)
T11B0 214:932 JLINK_ReadReg(XPSR)  returns 0x21000000 (0001ms, 31401ms total)
T11B0 214:933 JLINK_ReadReg(MSP)  returns 0x20000640 (0000ms, 31401ms total)
T11B0 214:933 JLINK_ReadReg(PSP)  returns 0xFFFFFFFC (0000ms, 31401ms total)
T11B0 214:933 JLINK_ReadReg(CFBP)  returns 0x00000000 (0000ms, 31401ms total)
T0D18 214:933 JLINK_ReadMemEx(0x2000066C, 0x0004 Bytes, ..., Flags = 0x02000000) -- Read from C cache (4 bytes @ 0x2000066C) - Data: B5 49 00 08  returns 0x04 (0000ms, 31401ms total)
T0D18 214:933 JLINK_ReadMemEx(0x2000065C, 0x0004 Bytes, ..., Flags = 0x02000000) -- Read from C cache (4 bytes @ 0x2000065C) - Data: 00 00 00 00  returns 0x04 (0000ms, 31401ms total)
T0D18 214:933 JLINK_ReadMemEx(0x20000660, 0x0004 Bytes, ..., Flags = 0x02000000) -- Read from C cache (4 bytes @ 0x20000660) - Data: 01 00 00 00  returns 0x04 (0000ms, 31401ms total)
T0D18 214:933 JLINK_ReadMemEx(0x20000664, 0x0004 Bytes, ..., Flags = 0x02000000) -- Read from C cache (4 bytes @ 0x20000664) - Data: AC 4B 00 08  returns 0x04 (0001ms, 31402ms total)
T0D18 214:934 JLINK_ReadMemEx(0x20000668, 0x0004 Bytes, ..., Flags = 0x02000000) -- Read from C cache (4 bytes @ 0x20000668) - Data: FF FF FF FF  returns 0x04 (0000ms, 31402ms total)
T0D18 214:934 JLINK_ReadMemEx(0x20000658, 0x0004 Bytes, ..., Flags = 0x02000000) -- Read from C cache (4 bytes @ 0x20000658) - Data: D4 06 00 20  returns 0x04 (0000ms, 31402ms total)
T0D18 214:934 JLINK_ReadMemEx(0x20000644, 0x0003 Bytes, ..., Flags = 0x02000000) -- Read from C cache (3 bytes @ 0x20000644) - Data: 00 C0 00  returns 0x03 (0000ms, 31402ms total)
T0D18 214:934 JLINK_ReadMemEx(0x00000000, 0x0001 Bytes, ..., Flags = 0x02000000) -- Read from flash cache (1 bytes @ 0x08000000) - Data: F0  returns 0x01 (0000ms, 31402ms total)
T0D18 214:934 JLINK_ReadMemEx(0x00000000, 0x0004 Bytes, ..., Flags = 0x02000000) -- Read from flash cache (4 bytes @ 0x08000000) - Data: F0 08 00 20  returns 0x04 (0000ms, 31402ms total)
T0D18 214:940 JLINK_ReadMemEx(0x080012C0, 0x003C Bytes, ..., Flags = 0x02000000) -- Read from flash cache (60 bytes @ 0x080012C0) - Data: C3 48 00 78 02 28 01 D1 0A 2C 05 D0 C0 48 00 78 ...  returns 0x3C (0000ms, 31402ms total)
T11B0 215:634 JLINK_ReadMemEx(0x080012C0, 0x0002 Bytes, ..., Flags = 0x02000000) -- Read from flash cache (2 bytes @ 0x080012C0) - Data: C3 48  returns 0x02 (0000ms, 31402ms total)
T11B0 215:634 JLINK_Step() -- Read from flash cache (2 bytes @ 0x080012C0) -- Read from flash cache (4 bytes @ 0x080015D0) -- Simulated  returns 0x00 (0001ms, 31403ms total)
T11B0 215:635 JLINK_ReadReg(R15 (PC))  returns 0x080012C2 (0000ms, 31403ms total)
T11B0 215:636 JLINK_ReadReg(XPSR)  returns 0x21000000 (0000ms, 31404ms total)
T11B0 215:636 JLINK_Step() -- Read from flash cache (2 bytes @ 0x080012C2) -- Read from C cache (1 bytes @ 0x20000010) -- Simulated  returns 0x00 (0000ms, 31404ms total)
T11B0 215:636 JLINK_ReadReg(R15 (PC))  returns 0x080012C4 (0000ms, 31404ms total)
T11B0 215:636 JLINK_ReadReg(XPSR)  returns 0x21000000 (0000ms, 31404ms total)
T11B0 215:636 JLINK_Step() -- Read from flash cache (2 bytes @ 0x080012C4) -- Simulated  returns 0x00 (0001ms, 31405ms total)
T11B0 215:637 JLINK_ReadReg(R15 (PC))  returns 0x080012C6 (0000ms, 31405ms total)
T11B0 215:637 JLINK_ReadReg(XPSR)  returns 0x81000000 (0000ms, 31405ms total)
T11B0 215:637 JLINK_Step() -- Read from flash cache (2 bytes @ 0x080012C6) -- Simulated  returns 0x00 (0001ms, 31406ms total)
T11B0 215:638 JLINK_ReadReg(R15 (PC))  returns 0x080012CC (0000ms, 31406ms total)
T11B0 215:638 JLINK_ReadReg(XPSR)  returns 0x81000000 (0000ms, 31406ms total)
T11B0 215:638 JLINK_ReadReg(R0)  returns 0x00000000 (0000ms, 31406ms total)
T11B0 215:638 JLINK_ReadReg(R1)  returns 0x2000000C (0000ms, 31406ms total)
T11B0 215:638 JLINK_ReadReg(R2)  returns 0x200006D4 (0001ms, 31407ms total)
T11B0 215:639 JLINK_ReadReg(R3)  returns 0x20000344 (0000ms, 31407ms total)
T11B0 215:639 JLINK_ReadReg(R4)  returns 0x00000000 (0000ms, 31407ms total)
T11B0 215:639 JLINK_ReadReg(R5)  returns 0x20000798 (0000ms, 31407ms total)
T11B0 215:639 JLINK_ReadReg(R6)  returns 0x08004BAC (0000ms, 31407ms total)
T11B0 215:639 JLINK_ReadReg(R7)  returns 0xFFFFFFFF (0000ms, 31407ms total)
T11B0 215:639 JLINK_ReadReg(R8)  returns 0xFFFFFFFF (0000ms, 31407ms total)
T11B0 215:639 JLINK_ReadReg(R9)  returns 0xFFFFFFFF (0000ms, 31407ms total)
T11B0 215:639 JLINK_ReadReg(R10)  returns 0xFFFFFFFF (0001ms, 31408ms total)
T11B0 215:640 JLINK_ReadReg(R11)  returns 0xFFFFFFFF (0000ms, 31408ms total)
T11B0 215:640 JLINK_ReadReg(R12)  returns 0xFFFFFFFF (0000ms, 31408ms total)
T11B0 215:640 JLINK_ReadReg(R13 (SP))  returns 0x20000640 (0000ms, 31408ms total)
T11B0 215:640 JLINK_ReadReg(R14)  returns 0x080049B5 (0000ms, 31408ms total)
T11B0 215:640 JLINK_ReadReg(R15 (PC))  returns 0x080012CC (0000ms, 31408ms total)
T11B0 215:640 JLINK_ReadReg(XPSR)  returns 0x81000000 (0000ms, 31408ms total)
T11B0 215:640 JLINK_ReadReg(MSP)  returns 0x20000640 (0000ms, 31408ms total)
T11B0 215:640 JLINK_ReadReg(PSP)  returns 0xFFFFFFFC (0001ms, 31409ms total)
T11B0 215:641 JLINK_ReadReg(CFBP)  returns 0x00000000 (0000ms, 31409ms total)
T0D18 215:642 JLINK_ReadMemEx(0x2000066C, 0x0004 Bytes, ..., Flags = 0x02000000) -- Read from C cache (4 bytes @ 0x2000066C) - Data: B5 49 00 08  returns 0x04 (0000ms, 31409ms total)
T0D18 215:642 JLINK_ReadMemEx(0x2000065C, 0x0004 Bytes, ..., Flags = 0x02000000) -- Read from C cache (4 bytes @ 0x2000065C) - Data: 00 00 00 00  returns 0x04 (0000ms, 31409ms total)
T0D18 215:643 JLINK_ReadMemEx(0x20000660, 0x0004 Bytes, ..., Flags = 0x02000000) -- Read from C cache (4 bytes @ 0x20000660) - Data: 01 00 00 00  returns 0x04 (0000ms, 31409ms total)
T0D18 215:643 JLINK_ReadMemEx(0x20000664, 0x0004 Bytes, ..., Flags = 0x02000000) -- Read from C cache (4 bytes @ 0x20000664) - Data: AC 4B 00 08  returns 0x04 (0000ms, 31409ms total)
T0D18 215:643 JLINK_ReadMemEx(0x20000668, 0x0004 Bytes, ..., Flags = 0x02000000) -- Read from C cache (4 bytes @ 0x20000668) - Data: FF FF FF FF  returns 0x04 (0000ms, 31409ms total)
T0D18 215:643 JLINK_ReadMemEx(0x20000658, 0x0004 Bytes, ..., Flags = 0x02000000) -- Read from C cache (4 bytes @ 0x20000658) - Data: D4 06 00 20  returns 0x04 (0001ms, 31410ms total)
T0D18 215:644 JLINK_ReadMemEx(0x20000644, 0x0003 Bytes, ..., Flags = 0x02000000) -- Read from C cache (3 bytes @ 0x20000644) - Data: 00 C0 00  returns 0x03 (0000ms, 31410ms total)
T0D18 215:644 JLINK_ReadMemEx(0x00000000, 0x0001 Bytes, ..., Flags = 0x02000000) -- Read from flash cache (1 bytes @ 0x08000000) - Data: F0  returns 0x01 (0000ms, 31410ms total)
T0D18 215:644 JLINK_ReadMemEx(0x00000000, 0x0004 Bytes, ..., Flags = 0x02000000) -- Read from flash cache (4 bytes @ 0x08000000) - Data: F0 08 00 20  returns 0x04 (0000ms, 31410ms total)
T0D18 215:653 JLINK_ReadMemEx(0x080012CC, 0x003C Bytes, ..., Flags = 0x02000000) -- Read from flash cache (60 bytes @ 0x080012CC) - Data: C0 48 00 78 02 28 42 D1 0B 2C 40 D1 1C 20 60 43 ...  returns 0x3C (0000ms, 31410ms total)
T11B0 216:352 JLINK_ReadMemEx(0x080012CC, 0x0002 Bytes, ..., Flags = 0x02000000) -- Read from flash cache (2 bytes @ 0x080012CC) - Data: C0 48  returns 0x02 (0000ms, 31410ms total)
T11B0 216:352 JLINK_Step() -- Read from flash cache (2 bytes @ 0x080012CC) -- Read from flash cache (4 bytes @ 0x080015D0) -- Simulated  returns 0x00 (0001ms, 31411ms total)
T11B0 216:353 JLINK_ReadReg(R15 (PC))  returns 0x080012CE (0000ms, 31411ms total)
T11B0 216:353 JLINK_ReadReg(XPSR)  returns 0x81000000 (0000ms, 31411ms total)
T11B0 216:353 JLINK_Step() -- Read from flash cache (2 bytes @ 0x080012CE) -- Read from C cache (1 bytes @ 0x20000010) -- Simulated  returns 0x00 (0000ms, 31411ms total)
T11B0 216:353 JLINK_ReadReg(R15 (PC))  returns 0x080012D0 (0000ms, 31411ms total)
T11B0 216:353 JLINK_ReadReg(XPSR)  returns 0x81000000 (0000ms, 31411ms total)
T11B0 216:353 JLINK_ReadMemEx(0x080012D0, 0x003C Bytes, ..., Flags = 0x02000000) -- Read from flash cache (60 bytes @ 0x080012D0) - Data: 02 28 42 D1 0B 2C 40 D1 1C 20 60 43 BA 49 09 68 ...  returns 0x3C (0000ms, 31411ms total)
T11B0 216:353 JLINK_ReadMemEx(0x080012D0, 0x0002 Bytes, ..., Flags = 0x02000000) -- Read from flash cache (2 bytes @ 0x080012D0) - Data: 02 28  returns 0x02 (0000ms, 31411ms total)
T11B0 216:353 JLINK_ReadMemEx(0x080012D2, 0x0002 Bytes, ..., Flags = 0x02000000) -- Read from flash cache (2 bytes @ 0x080012D2) - Data: 42 D1  returns 0x02 (0001ms, 31412ms total)
T11B0 216:354 JLINK_Step() -- Read from flash cache (2 bytes @ 0x080012D0) -- Simulated  returns 0x00 (0000ms, 31412ms total)
T11B0 216:354 JLINK_ReadReg(R15 (PC))  returns 0x080012D2 (0000ms, 31412ms total)
T11B0 216:354 JLINK_ReadReg(XPSR)  returns 0x81000000 (0000ms, 31412ms total)
T11B0 216:354 JLINK_ReadMemEx(0x080012D2, 0x0002 Bytes, ..., Flags = 0x02000000) -- Read from flash cache (2 bytes @ 0x080012D2) - Data: 42 D1  returns 0x02 (0000ms, 31412ms total)
T11B0 216:354 JLINK_ReadMemEx(0x080012D4, 0x003C Bytes, ..., Flags = 0x02000000) -- Read from flash cache (60 bytes @ 0x080012D4) - Data: 0B 2C 40 D1 1C 20 60 43 BA 49 09 68 40 18 01 23 ...  returns 0x3C (0000ms, 31412ms total)
T11B0 216:354 JLINK_ReadMemEx(0x080012D4, 0x0002 Bytes, ..., Flags = 0x02000000) -- Read from flash cache (2 bytes @ 0x080012D4) - Data: 0B 2C  returns 0x02 (0000ms, 31412ms total)
T11B0 216:354 JLINK_Step() -- Read from flash cache (2 bytes @ 0x080012D2) -- Simulated  returns 0x00 (0000ms, 31412ms total)
T11B0 216:354 JLINK_ReadReg(R15 (PC))  returns 0x0800135A (0000ms, 31412ms total)
T11B0 216:354 JLINK_ReadReg(XPSR)  returns 0x81000000 (0000ms, 31412ms total)
T11B0 216:354 JLINK_ReadReg(R0)  returns 0x00000000 (0000ms, 31412ms total)
T11B0 216:354 JLINK_ReadReg(R1)  returns 0x2000000C (0000ms, 31412ms total)
T11B0 216:354 JLINK_ReadReg(R2)  returns 0x200006D4 (0000ms, 31412ms total)
T11B0 216:354 JLINK_ReadReg(R3)  returns 0x20000344 (0000ms, 31412ms total)
T11B0 216:354 JLINK_ReadReg(R4)  returns 0x00000000 (0001ms, 31413ms total)
T11B0 216:355 JLINK_ReadReg(R5)  returns 0x20000798 (0000ms, 31413ms total)
T11B0 216:355 JLINK_ReadReg(R6)  returns 0x08004BAC (0000ms, 31413ms total)
T11B0 216:355 JLINK_ReadReg(R7)  returns 0xFFFFFFFF (0000ms, 31413ms total)
T11B0 216:355 JLINK_ReadReg(R8)  returns 0xFFFFFFFF (0000ms, 31413ms total)
T11B0 216:355 JLINK_ReadReg(R9)  returns 0xFFFFFFFF (0000ms, 31413ms total)
T11B0 216:355 JLINK_ReadReg(R10)  returns 0xFFFFFFFF (0000ms, 31413ms total)
T11B0 216:355 JLINK_ReadReg(R11)  returns 0xFFFFFFFF (0000ms, 31413ms total)
T11B0 216:355 JLINK_ReadReg(R12)  returns 0xFFFFFFFF (0000ms, 31413ms total)
T11B0 216:355 JLINK_ReadReg(R13 (SP))  returns 0x20000640 (0000ms, 31413ms total)
T11B0 216:355 JLINK_ReadReg(R14)  returns 0x080049B5 (0000ms, 31413ms total)
T11B0 216:355 JLINK_ReadReg(R15 (PC))  returns 0x0800135A (0000ms, 31413ms total)
T11B0 216:355 JLINK_ReadReg(XPSR)  returns 0x81000000 (0000ms, 31413ms total)
T11B0 216:355 JLINK_ReadReg(MSP)  returns 0x20000640 (0000ms, 31413ms total)
T11B0 216:355 JLINK_ReadReg(PSP)  returns 0xFFFFFFFC (0000ms, 31413ms total)
T11B0 216:355 JLINK_ReadReg(CFBP)  returns 0x00000000 (0000ms, 31413ms total)
T0D18 216:356 JLINK_ReadMemEx(0x2000066C, 0x0004 Bytes, ..., Flags = 0x02000000) -- Read from C cache (4 bytes @ 0x2000066C) - Data: B5 49 00 08  returns 0x04 (0001ms, 31414ms total)
T0D18 216:357 JLINK_ReadMemEx(0x2000065C, 0x0004 Bytes, ..., Flags = 0x02000000) -- Read from C cache (4 bytes @ 0x2000065C) - Data: 00 00 00 00  returns 0x04 (0000ms, 31414ms total)
T0D18 216:357 JLINK_ReadMemEx(0x20000660, 0x0004 Bytes, ..., Flags = 0x02000000) -- Read from C cache (4 bytes @ 0x20000660) - Data: 01 00 00 00  returns 0x04 (0000ms, 31414ms total)
T0D18 216:357 JLINK_ReadMemEx(0x20000664, 0x0004 Bytes, ..., Flags = 0x02000000) -- Read from C cache (4 bytes @ 0x20000664) - Data: AC 4B 00 08  returns 0x04 (0000ms, 31414ms total)
T0D18 216:357 JLINK_ReadMemEx(0x20000668, 0x0004 Bytes, ..., Flags = 0x02000000) -- Read from C cache (4 bytes @ 0x20000668) - Data: FF FF FF FF  returns 0x04 (0000ms, 31414ms total)
T0D18 216:357 JLINK_ReadMemEx(0x20000658, 0x0004 Bytes, ..., Flags = 0x02000000) -- Read from C cache (4 bytes @ 0x20000658) - Data: D4 06 00 20  returns 0x04 (0000ms, 31414ms total)
T0D18 216:357 JLINK_ReadMemEx(0x20000644, 0x0003 Bytes, ..., Flags = 0x02000000) -- Read from C cache (3 bytes @ 0x20000644) - Data: 00 C0 00  returns 0x03 (0000ms, 31414ms total)
T0D18 216:357 JLINK_ReadMemEx(0x00000000, 0x0001 Bytes, ..., Flags = 0x02000000) -- Read from flash cache (1 bytes @ 0x08000000) - Data: F0  returns 0x01 (0000ms, 31414ms total)
T0D18 216:357 JLINK_ReadMemEx(0x00000000, 0x0004 Bytes, ..., Flags = 0x02000000) -- Read from flash cache (4 bytes @ 0x08000000) - Data: F0 08 00 20  returns 0x04 (0000ms, 31414ms total)
T0D18 216:382 JLINK_ReadMemEx(0x0800135A, 0x0002 Bytes, ..., Flags = 0x02000000) -- Read from flash cache (2 bytes @ 0x0800135A) - Data: 1C 20  returns 0x02 (0000ms, 31414ms total)
T0D18 216:382 JLINK_ReadMemEx(0x0800135C, 0x003C Bytes, ..., Flags = 0x02000000) -- Read from flash cache (60 bytes @ 0x0800135C) - Data: 60 43 9A 49 09 68 40 18 00 23 08 21 41 18 1A 46 ...  returns 0x3C (0000ms, 31414ms total)
T11B0 217:044 JLINK_ReadMemEx(0x0800135A, 0x0002 Bytes, ..., Flags = 0x02000000) -- Read from flash cache (2 bytes @ 0x0800135A) - Data: 1C 20  returns 0x02 (0000ms, 31414ms total)
T11B0 217:044 JLINK_Step() -- Read from flash cache (2 bytes @ 0x0800135A) -- Simulated  returns 0x00 (0001ms, 31415ms total)
T11B0 217:045 JLINK_ReadReg(R15 (PC))  returns 0x0800135C (0000ms, 31415ms total)
T11B0 217:045 JLINK_ReadReg(XPSR)  returns 0x01000000 (0000ms, 31415ms total)
T11B0 217:045 JLINK_Step() -- Read from flash cache (2 bytes @ 0x0800135C) -- Simulated  returns 0x00 (0000ms, 31415ms total)
T11B0 217:045 JLINK_ReadReg(R15 (PC))  returns 0x0800135E (0000ms, 31415ms total)
T11B0 217:045 JLINK_ReadReg(XPSR)  returns 0x41000000 (0000ms, 31415ms total)
T11B0 217:045 JLINK_Step() -- Read from flash cache (2 bytes @ 0x0800135E) -- Read from flash cache (4 bytes @ 0x080015C8) -- Simulated  returns 0x00 (0000ms, 31415ms total)
T11B0 217:045 JLINK_ReadReg(R15 (PC))  returns 0x08001360 (0001ms, 31416ms total)
T11B0 217:046 JLINK_ReadReg(XPSR)  returns 0x41000000 (0000ms, 31416ms total)
